Element, I1_1, Ang1_1, I1_2, Ang1_2, I1_3, Ang1_3, I1_4, Ang1_4, Iresid1, AngResid1, I2_1, Ang2_1, I2_2, Ang2_2, I2_3, Ang2_3, I2_4, Ang2_4, Iresid2, AngResid2
Vsource.SOURCE, 8.98115E-005,   -58.66, 0.000104589,  -176.54, 0.000101087,    55.21,          0,     0.00, 7.73723E-009,  -164.36, 8.98115E-005,   121.34, 0.000104589,     3.46, 0.000101087,  -124.79,          0,     0.00, 7.73723E-009,    15.64
Capacitor.CAP_611,    41.7019,  -150.00,          0,     0.00,          0,     0.00,          0,     0.00,    41.7019,  -150.00,    41.7019,    30.00,          0,     0.00,          0,     0.00,          0,     0.00,    41.7019,    30.00
Capacitor.CAP_675,    83.2804,    90.00,    83.2804,   -30.00,    83.2804,  -150.00,          0,     0.00, 3.23681E-005,   159.58,    83.2804,   -90.00,    83.2804,   150.00,    83.2804,    30.00,          0,     0.00, 3.23681E-005,   -20.42
Line.632_633, 0.000842648,    85.92, 0.000925386,   -32.58, 0.000791775,  -142.62,          0,     0.00, 0.00025204,   -33.33, 0.000774502,    85.56, 0.000454486,   -35.26, 0.000724061,  -141.93,          0,     0.00, 0.000152634,   155.50
Line.632_645B, 0.000964316,   -30.00,          0,     0.00,          0,     0.00,          0,     0.00, 0.000964316,   -30.00, 0.000448063,   150.00,          0,     0.00,          0,     0.00,          0,     0.00, 0.000448063,   150.00
Line.632_645C, 0.000760145,  -150.00,          0,     0.00,          0,     0.00,          0,     0.00, 0.000760145,  -150.00, 0.000248704,    30.00,          0,     0.00,          0,     0.00,          0,     0.00, 0.000248704,    30.00
Line.632_670, 0.00372692,    91.49, 0.00283246,   -33.34, 0.00373248,  -148.96,          0,     0.00, 0.000959847,   165.26, 0.00132213,   -94.20, 0.000624595,   165.30, 0.00171728,    27.73,          0,     0.00, 0.000895164,   -23.79
Line.645_646B, 0.000457529,   -30.00,          0,     0.00,          0,     0.00,          0,     0.00, 0.000457529,   -30.00, 0.000147778,   150.00,          0,     0.00,          0,     0.00,          0,     0.00, 0.000147778,   150.00
Line.645_646C, 0.000456086,  -150.00,          0,     0.00,          0,     0.00,          0,     0.00, 0.000456086,  -150.00, 0.000149222,    30.00,          0,     0.00,          0,     0.00,          0,     0.00, 0.000149222,    30.00
Line.670_671, 0.00452799,    92.45, 0.00355037,   -35.33, 0.00433691,  -148.20,          0,     0.00, 0.00100019,   169.30, 0.000345896,   124.02, 0.000969729,   -49.86, 0.000334826,     6.02,          0,     0.00, 0.000872109,   -28.76
Line.671_680, 0.00191082,    94.36, 0.00178615,   -37.96, 0.00161531,  -146.38,          0,     0.00, 0.000119956,  -133.03,  0.0017097,    94.87, 0.00158656,   -38.96,   0.001414,  -145.86,          0,     0.00, 0.000119956,  -133.03
Line.671_684A, 0.000657855,    90.00,          0,     0.00,          0,     0.00,          0,     0.00, 0.000657855,    90.00, 0.000350991,   -90.00,          0,     0.00,          0,     0.00,          0,     0.00, 0.000350991,   -90.00
Line.671_684C, 0.000861074,  -150.00,          0,     0.00,          0,     0.00,          0,     0.00, 0.000861074,  -150.00, 0.000551322,    30.00,          0,     0.00,          0,     0.00,          0,     0.00, 0.000551322,    30.00
Line.684_611, 0.000813148,  -150.00,          0,     0.00,          0,     0.00,          0,     0.00, 0.000813148,  -150.00, 0.000195707,    30.00,          0,     0.00,          0,     0.00,          0,     0.00, 0.000195707,    30.00
Line.RG60_632, 0.00647427,    92.57, 0.00641594,   -34.42, 0.00669153,  -148.25,          0,     0.00, 0.000967132,  -135.34, 0.000804119,   111.16, 0.000565914,   -90.88, 0.000675236,    12.40,          0,     0.00, 0.000488082,    42.39
Line.611C, 0.00010138,  -150.00,          0,     0.00,          0,     0.00,          0,     0.00, 0.00010138,  -150.00, 0.000100384,    30.00,          0,     0.00,          0,     0.00,          0,     0.00, 0.000100384,    30.00
Line.634A, 1.16585E-005,    89.72,          0,     0.00,          0,     0.00,          0,     0.00, 1.16585E-005,    89.72, 1.15435E-005,   -90.29,          0,     0.00,          0,     0.00,          0,     0.00, 1.15435E-005,   -90.29
Line.634B, 1.16656E-005,   -30.21,          0,     0.00,          0,     0.00,          0,     0.00, 1.16656E-005,   -30.21, 1.15507E-005,   149.79,          0,     0.00,          0,     0.00,          0,     0.00, 1.15507E-005,   149.79
Line.634C, 1.16656E-005,  -150.21,          0,     0.00,          0,     0.00,          0,     0.00, 1.16656E-005,  -150.21, 1.15507E-005,    29.78,          0,     0.00,          0,     0.00,          0,     0.00, 1.15507E-005,    29.78
Line.645B, 0.000101378,   -30.00,          0,     0.00,          0,     0.00,          0,     0.00, 0.000101378,   -30.00, 0.000100382,   150.00,          0,     0.00,          0,     0.00,          0,     0.00, 0.000100382,   150.00
Line.646BC, 0.000101374,   -29.99, 0.000101374,  -150.01,          0,     0.00,          0,     0.00, 0.000101351,   -90.00, 0.000100393,   149.99, 0.000100393,    30.01,          0,     0.00,          0,     0.00, 0.000100416,    90.00
Line.652A, 0.00010138,    90.00,          0,     0.00,          0,     0.00,          0,     0.00, 0.00010138,    90.00, 0.000100384,   -90.00,          0,     0.00,          0,     0.00,          0,     0.00, 0.000100384,   -90.00
Line.670A, 0.000101383,    90.00,          0,     0.00,          0,     0.00,          0,     0.00, 0.000101383,    90.00, 0.000100387,   -90.00,          0,     0.00,          0,     0.00,          0,     0.00, 0.000100387,   -90.00
Line.670B, 0.000101381,   -30.00,          0,     0.00,          0,     0.00,          0,     0.00, 0.000101381,   -30.00, 0.000100385,   150.00,          0,     0.00,          0,     0.00,          0,     0.00, 0.000100385,   150.00
Line.670C, 0.000101381,  -150.00,          0,     0.00,          0,     0.00,          0,     0.00, 0.000101381,  -150.00, 0.000100384,    30.00,          0,     0.00,          0,     0.00,          0,     0.00, 0.000100384,    30.00
Line.675A, 0.000101375,    89.99,          0,     0.00,          0,     0.00,          0,     0.00, 0.000101375,    89.99, 0.000100379,   -90.01,          0,     0.00,          0,     0.00,          0,     0.00, 0.000100379,   -90.01
Line.675B, 0.000101381,   -30.00,          0,     0.00,          0,     0.00,          0,     0.00, 0.000101381,   -30.00, 0.000100384,   150.00,          0,     0.00,          0,     0.00,          0,     0.00, 0.000100384,   150.00
Line.675C, 0.000101374,  -150.01,          0,     0.00,          0,     0.00,          0,     0.00, 0.000101374,  -150.01, 0.000100378,    29.99,          0,     0.00,          0,     0.00,          0,     0.00, 0.000100378,    29.99
Line.684_652, 0.000302653,    90.00,          0,     0.00,          0,     0.00,          0,     0.00, 0.000302653,    90.00, 0.000302653,   -90.00,          0,     0.00,          0,     0.00,          0,     0.00, 0.000302653,   -90.00
Line.692_675, 0.000504427,    90.00, 0.000504432,   -30.00, 0.000504426,  -150.00,          0,     0.00, 1.89811E-008,    17.81, 0.000504427,   -90.00, 0.000504432,   150.00, 0.000504426,    30.00,          0,     0.00, 1.89811E-008,  -162.19
Line.692AC, 0.000101373,    89.99, 0.000101372,  -149.99,          0,     0.00,          0,     0.00, 0.00010135,   150.00, 0.000100392,   -89.99, 0.000100392,    29.99,          0,     0.00,          0,     0.00, 0.000100414,   -30.00
Line.CAP_611C, 0.000101388,  -150.00,          0,     0.00,          0,     0.00,          0,     0.00, 0.000101388,  -150.00, 0.000100392,    30.00,          0,     0.00,          0,     0.00,          0,     0.00, 0.000100392,    30.00
Line.CAP_675ABC, 0.000101392,    90.00, 0.000101391,   -30.00, 0.000101392,  -150.00,          0,     0.00, 5.00721E-010,   125.54, 0.000100395,   -90.00, 0.000100395,   150.00, 0.000100395,    30.00,          0,     0.00, 3.44718E-010,   -20.48
Line.CONN 03, 0.000101383,   -30.00,          0,     0.00,          0,     0.00,          0,     0.00, 0.000101383,   -30.00, 0.000100387,   150.00,          0,     0.00,          0,     0.00,          0,     0.00, 0.000100387,   150.00
Line.LOAD671, 0.000101377,    89.99, 0.000101377,   -30.01, 0.000101377,  -150.01,          0,     0.00, 7.58935E-010,  -147.53, 0.000100381,   -90.01, 0.000100381,   149.99, 0.000100381,    29.99,          0,     0.00, 6.00952E-010,    22.36
Line.SWITCH, 0.000908463,    90.00, 0.000706701,   -30.00, 0.000908462,  -150.00,          0,     0.00, 0.000201756,   150.00, 0.000907467,   -90.00, 0.000705705,   150.00, 0.000907467,    30.00,          0,     0.00, 0.000201755,   -30.00
Transformer.LVR_01, 0.00295982,    90.00, 0.00295982,   -90.00,          0,     0.00,          0,     0.00,          0,     0.00, 0.00295982,   -90.00, 0.00295982,    90.00,          0,     0.00,          0,     0.00,          0,     0.00
Transformer.LVR_02, 0.00316162,   -30.00, 0.00316162,   150.00,          0,     0.00,          0,     0.00,          0,     0.00, 0.00316162,   150.00, 0.00316162,   -30.00,          0,     0.00,          0,     0.00,          0,     0.00
Transformer.LVR_03,  0.0037669,  -150.00,  0.0037669,    30.00,          0,     0.00,          0,     0.00,          0,     0.00,  0.0037669,    30.00,  0.0037669,  -150.00,          0,     0.00,          0,     0.00,          0,     0.00
Transformer.SUBSTATION, 8.9822E-005,   121.34, 0.000104587,     3.46, 0.000101098,  -124.78,          0,     0.00, 5.24677E-011,    33.69, 0.00295983,   -90.00, 0.00316162,   150.00, 0.00376692,    30.00, 0.000727467,  -136.10, 1.47255E-009,    71.57
Transformer.TXFMR1, 6.67186E-005,   -89.99, 6.67178E-005,   150.00, 6.67178E-005,    30.00, 1.87079E-009,   153.42, 6.40694E-012,    27.47, 2.32415E-005,   -90.14, 2.32488E-005,   149.89, 2.32488E-005,    29.89, 1.62142E-008,   -26.59, 5.30322E-011,    30.96
Load.LOAD 611C,    78.3555,    94.69,    78.3555,   -85.31,          0,     0.00,          0,     0.00,          0,     0.00,          0,     0.00,          0,     0.00,          0,     0.00,          0,     0.00,          0,     0.00
Load.LOAD 634A,    700.595,   -34.51,    700.595,   145.49,          0,     0.00,          0,     0.00,          0,     0.00,          0,     0.00,          0,     0.00,          0,     0.00,          0,     0.00,          0,     0.00
Load.LOAD 634B,    541.209,  -156.87,    541.209,    23.13,          0,     0.00,          0,     0.00,          0,     0.00,          0,     0.00,          0,     0.00,          0,     0.00,          0,     0.00,          0,     0.00
Load.LOAD 634C,    541.209,    83.13,    541.209,   -96.87,          0,     0.00,          0,     0.00,          0,     0.00,          0,     0.00,          0,     0.00,          0,     0.00,          0,     0.00,          0,     0.00
Load.LOAD 645B,    87.8083,  -156.29,    87.8083,    23.71,          0,     0.00,          0,     0.00,          0,     0.00,          0,     0.00,          0,     0.00,          0,     0.00,          0,     0.00,          0,     0.00
Load.LOAD 646,    63.7765,  -119.89,    63.7765,    60.11,          0,     0.00,          0,     0.00,          0,     0.00,          0,     0.00,          0,     0.00,          0,     0.00,          0,     0.00,          0,     0.00
Load.LOAD 652,    64.3113,   -33.90,    64.3113,   146.10,          0,     0.00,          0,     0.00,          0,     0.00,          0,     0.00,          0,     0.00,          0,     0.00,          0,     0.00,          0,     0.00
Load.LOAD 670A,    8.21038,   -30.46,    8.21038,   149.54,          0,     0.00,          0,     0.00,          0,     0.00,          0,     0.00,          0,     0.00,          0,     0.00,          0,     0.00,          0,     0.00
Load.LOAD 670B,    31.6918,  -149.89,    31.6918,    30.11,          0,     0.00,          0,     0.00,          0,     0.00,          0,     0.00,          0,     0.00,          0,     0.00,          0,     0.00,          0,     0.00
Load.LOAD 670C,    56.3108,    89.88,    56.3108,   -90.12,          0,     0.00,          0,     0.00,          0,     0.00,          0,     0.00,          0,     0.00,          0,     0.00,          0,     0.00,          0,     0.00
Load.LOAD 671,    184.656,   -29.77,    184.656,  -149.77,    184.656,    90.23,          0,     0.00, 1.42109E-014,     0.00,          0,     0.00,          0,     0.00,          0,     0.00,          0,     0.00,          0,     0.00
Load.LOAD 675A,    216.877,   -21.41,    216.877,   158.59,          0,     0.00,          0,     0.00,          0,     0.00,          0,     0.00,          0,     0.00,          0,     0.00,          0,     0.00,          0,     0.00
Load.LOAD 675B,    37.7459,  -161.41,    37.7459,    18.59,          0,     0.00,          0,     0.00,          0,     0.00,          0,     0.00,          0,     0.00,          0,     0.00,          0,     0.00,          0,     0.00
Load.LOAD 675C,    149.605,    83.80,    149.605,   -96.20,          0,     0.00,          0,     0.00,          0,     0.00,          0,     0.00,          0,     0.00,          0,     0.00,          0,     0.00,          0,     0.00
Load.LOAD 692AC,    47.3768,   -41.67,    47.3768,    78.33,    47.3768,  -161.67,          0,     0.00,          0,     0.00,          0,     0.00,          0,     0.00,          0,     0.00,          0,     0.00,          0,     0.00
